time	V(vin)	V(vout)
0.000000000000000e+000	1.000000e-002	9.961503e-005
6.850539037884099e-004	1.432268e-002	4.420083e-003
1.370107807576820e-003	1.861762e-002	8.711151e-003
2.055161711365230e-003	2.288481e-002	1.297282e-002
2.740215615153640e-003	2.712426e-002	1.720509e-002
3.425269518942050e-003	3.133596e-002	2.140796e-002
4.110323422730459e-003	3.551992e-002	2.558143e-002
4.795377326518868e-003	3.967613e-002	2.972550e-002
6.023948755090293e-003	4.705030e-002	3.707288e-002
7.252520183661718e-003	5.410441e-002	4.409549e-002
8.481091612233142e-003	6.083845e-002	5.079334e-002
9.709663040804568e-003	6.725244e-002	5.716642e-002
1.093823446937599e-002	7.334636e-002	6.321475e-002
1.216680589794742e-002	7.912023e-002	6.893831e-002
1.339537732651884e-002	8.457403e-002	7.433711e-002
1.578109161223312e-002	9.390928e-002	8.354886e-002
1.816680589794739e-002	1.011015e-001	9.061395e-002
2.055252018366166e-002	1.061508e-001	9.553239e-002
2.293823446937593e-002	1.090571e-001	9.830418e-002
2.532394875509021e-002	1.098203e-001	9.892931e-002
2.770966304080448e-002	1.084406e-001	9.740778e-002
3.009537732651874e-002	1.049178e-001	9.373960e-002
3.165252018366164e-002	1.012551e-001	8.998913e-002
3.320966304080453e-002	9.684606e-002	8.549820e-002
3.476680589794743e-002	9.169075e-002	8.026682e-002
3.632394875509033e-002	8.578915e-002	7.429498e-002
3.788109161223322e-002	7.914128e-002	6.758269e-002
3.943823446937612e-002	7.174712e-002	6.012994e-002
4.099537732651901e-002	6.360667e-002	5.193673e-002
4.196680589794762e-002	5.830491e-002	4.660689e-002
4.293823446937621e-002	5.287522e-002	4.115251e-002
4.390966304080481e-002	4.731758e-002	3.557357e-002
4.488109161223342e-002	4.163201e-002	2.987009e-002
4.585252018366201e-002	3.581850e-002	2.404206e-002
4.682394875509061e-002	2.987705e-002	1.808949e-002
4.779537732651921e-002	2.380766e-002	1.201236e-002
4.838145433544779e-002	2.013993e-002	8.341789e-003
4.896753134437638e-002	1.647077e-002	4.671084e-003
4.955360835330497e-002	1.280017e-002	1.000246e-003
5.013968536223356e-002	9.128136e-003	-2.670724e-003
5.072576237116214e-002	5.454661e-003	-6.341826e-003
5.131183938009074e-002	1.779749e-003	-1.001306e-002
5.189791638901932e-002	-1.896600e-003	-1.368443e-002
5.265505924616220e-002	-6.630729e-003	-1.841014e-002
5.341220210330508e-002	-1.130123e-002	-2.307016e-002
5.416934496044796e-002	-1.590811e-002	-2.766449e-002
5.492648781759084e-002	-2.045136e-002	-3.219313e-002
5.568363067473371e-002	-2.493099e-002	-3.665607e-002
5.644077353187659e-002	-2.934699e-002	-4.105332e-002
5.719791638901947e-002	-3.369937e-002	-4.538488e-002
5.851220210330523e-002	-4.107632e-002	-5.272037e-002
5.982648781759098e-002	-4.799646e-002	-5.959439e-002
6.114077353187673e-002	-5.445980e-002	-6.600693e-002
6.245505924616248e-002	-6.046633e-002	-7.195799e-002
6.376934496044823e-002	-6.601605e-002	-7.744757e-002
6.508363067473398e-002	-7.110897e-002	-8.247567e-002
6.639791638901973e-002	-7.574508e-002	-8.704229e-002
6.918363067473410e-002	-8.340462e-002	-9.453402e-002
7.196934496044846e-002	-8.811635e-002	-9.908084e-002
7.475505924616284e-002	-8.988026e-002	-1.006828e-001
7.754077353187720e-002	-8.869637e-002	-9.933983e-002
8.032648781759157e-002	-8.456466e-002	-9.505198e-002
8.311220210330593e-002	-7.748515e-002	-8.781924e-002
8.589791638902029e-002	-6.745782e-002	-7.764161e-002
8.708363067473461e-002	-6.245407e-002	-7.258421e-002
8.826934496044893e-002	-5.712754e-002	-6.720843e-002
8.945505924616326e-002	-5.147821e-002	-6.151426e-002
9.064077353187758e-002	-4.550611e-002	-5.550171e-002
9.182648781759190e-002	-3.921121e-002	-4.917078e-002
9.301220210330621e-002	-3.259353e-002	-4.252146e-002
9.419791638902053e-002	-2.565307e-002	-3.555376e-002
9.482648781759198e-002	-2.192145e-002	-3.181000e-002
9.545505924616342e-002	-1.815490e-002	-2.803277e-002
9.608363067473487e-002	-1.435341e-002	-2.422207e-002
9.671220210330632e-002	-1.051698e-002	-2.037791e-002
9.734077353187777e-002	-6.645617e-003	-1.650029e-002
9.796934496044921e-002	-2.739314e-003	-1.258919e-002
9.859791638902066e-002	1.201926e-003	-8.644635e-003
9.929791638902068e-002	5.590153e-003	-4.254510e-003
9.986836142250284e-002	9.182305e-003	-6.621957e-004
1.004388064559850e-001	1.276473e-002	2.919160e-003
1.010092514894672e-001	1.633742e-002	6.489556e-003
1.015796965229493e-001	1.990039e-002	1.004899e-002
1.021501415564315e-001	2.345362e-002	1.359747e-002
1.027205865899136e-001	2.699713e-002	1.713499e-002
1.032910316233958e-001	3.053091e-002	2.066155e-002
1.043910316233958e-001	3.731586e-002	2.742889e-002
1.054910316233959e-001	4.389475e-002	3.398610e-002
1.065910316233959e-001	5.026759e-002	4.033319e-002
1.076910316233959e-001	5.643436e-002	4.647016e-002
1.087910316233959e-001	6.239508e-002	5.239701e-002
1.098910316233960e-001	6.814974e-002	5.811374e-002
1.109910316233960e-001	7.369834e-002	6.362035e-002
1.128053173376818e-001	8.223942e-002	7.208226e-002
1.146196030519675e-001	8.964598e-002	7.940428e-002
1.164338887662533e-001	9.591803e-002	8.558640e-002
1.182481744805391e-001	1.010555e-001	9.062862e-002
1.200624601948248e-001	1.050586e-001	9.453095e-002
1.218767459091106e-001	1.079270e-001	9.729338e-002
1.236910316233964e-001	1.096610e-001	9.891591e-002
1.256767459091105e-001	1.097678e-001	9.889929e-002
1.276624601948246e-001	1.084411e-001	9.745466e-002
1.296481744805387e-001	1.056809e-001	9.458200e-002
1.316338887662528e-001	1.014871e-001	9.028133e-002
1.336196030519669e-001	9.585973e-002	8.455264e-002
1.356053173376809e-001	8.879883e-002	7.739593e-002
1.375910316233950e-001	8.030438e-002	6.881120e-002
1.387481744805378e-001	7.487173e-002	6.333288e-002
1.399053173376805e-001	6.917567e-002	5.759561e-002
1.410624601948232e-001	6.321619e-002	5.159939e-002
1.422196030519660e-001	5.699332e-002	4.534421e-002
1.433767459091087e-001	5.050703e-002	3.883009e-002
1.445338887662514e-001	4.375734e-002	3.205701e-002
1.456910316233941e-001	3.674424e-002	2.502497e-002
1.463075355296441e-001	3.297765e-002	2.125051e-002
1.469240394358940e-001	2.919109e-002	1.745752e-002
1.475405433421440e-001	2.538456e-002	1.364600e-002
1.481570472483939e-001	2.155807e-002	9.815942e-003
1.487735511546438e-001	1.771161e-002	5.967356e-003
1.493900550608938e-001	1.384518e-002	2.100238e-003
1.500065589671437e-001	9.958789e-003	-1.785411e-003
1.506208446814294e-001	6.085889e-003	-5.656100e-003
1.512351303957150e-001	2.233077e-003	-9.505287e-003
1.518494161100007e-001	-1.599645e-003	-1.333297e-002
1.524637018242863e-001	-5.412279e-003	-1.713915e-002
1.530779875385719e-001	-9.204825e-003	-2.092383e-002
1.536922732528576e-001	-1.297728e-002	-2.468701e-002
1.543065589671432e-001	-1.672965e-002	-2.842869e-002
1.553637018242860e-001	-2.313145e-002	-3.480859e-002
1.564208446814287e-001	-2.932164e-002	-4.097325e-002
1.574779875385715e-001	-3.530023e-002	-4.692265e-002
1.585351303957142e-001	-4.106720e-002	-5.265680e-002
1.595922732528569e-001	-4.662256e-002	-5.817570e-002
1.606494161099997e-001	-5.196631e-002	-6.347934e-002
1.617065589671424e-001	-5.709846e-002	-6.856774e-002
1.634922732528565e-001	-6.514369e-002	-7.652985e-002
1.652779875385706e-001	-7.206796e-002	-8.336620e-002
1.670637018242847e-001	-7.787127e-002	-8.907679e-002
1.688494161099988e-001	-8.255360e-002	-9.366163e-002
1.706351303957129e-001	-8.611496e-002	-9.712070e-002
1.724208446814270e-001	-8.855535e-002	-9.945402e-002
1.742065589671411e-001	-8.987477e-002	-1.006616e-001
1.761065589671408e-001	-8.962754e-002	-1.002946e-001
1.780065589671406e-001	-8.807253e-002	-9.862516e-002
1.799065589671404e-001	-8.520974e-002	-9.565315e-002
1.818065589671402e-001	-8.103918e-002	-9.137860e-002
1.837065589671400e-001	-7.556084e-002	-8.580152e-002
1.856065589671398e-001	-6.877473e-002	-7.892190e-002
1.875065589671396e-001	-6.068084e-002	-7.073975e-002
1.886065589671395e-001	-5.555781e-002	-6.557183e-002
1.897065589671393e-001	-5.018930e-002	-6.016242e-002
1.908065589671392e-001	-4.457531e-002	-5.451151e-002
1.919065589671391e-001	-3.871584e-002	-4.861910e-002
1.930065589671390e-001	-3.261088e-002	-4.248520e-002
1.941065589671389e-001	-2.626044e-002	-3.610981e-002
1.952065589671387e-001	-1.966451e-002	-2.949293e-002
1.956922732528530e-001	-1.672977e-002	-2.655049e-002
1.961779875385672e-001	-1.377706e-002	-2.359097e-002
1.966637018242814e-001	-1.080639e-002	-2.061436e-002
1.971494161099957e-001	-7.817738e-003	-1.762067e-002
1.976351303957099e-001	-4.811122e-003	-1.460990e-002
1.981208446814241e-001	-1.786536e-003	-1.158203e-002
1.986065589671384e-001	1.256019e-003	-8.537090e-003
1.987065589671384e-001	1.882093e-003	-7.910637e-003
1.993317542796383e-001	5.814503e-003	-3.976727e-003
1.999569495921382e-001	9.739319e-003	-5.189090e-005
2.005821449046382e-001	1.365654e-002	3.863871e-003
2.012073402171381e-001	1.756617e-002	7.770558e-003
2.018325355296380e-001	2.146821e-002	1.166817e-002
2.024577308421380e-001	2.536265e-002	1.555671e-002
2.030829261546379e-001	2.924950e-002	1.943618e-002
2.041686404403520e-001	3.596639e-002	2.613653e-002
2.052543547260662e-001	4.248931e-002	3.263891e-002
2.063400690117804e-001	4.881825e-002	3.894332e-002
2.074257832974946e-001	5.495320e-002	4.504976e-002
2.085114975832087e-001	6.089418e-002	5.095822e-002
2.095972118689229e-001	6.664117e-002	5.666872e-002
2.106829261546371e-001	7.219419e-002	6.218124e-002
2.124543547260654e-001	8.068820e-002	7.059967e-002
2.142257832974938e-001	8.811660e-002	7.794706e-002
2.159972118689222e-001	9.447939e-002	8.422341e-002
2.177686404403506e-001	9.977657e-002	8.942872e-002
2.195400690117789e-001	1.040081e-001	9.356298e-002
2.213114975832073e-001	1.071741e-001	9.662621e-002
2.230829261546357e-001	1.092744e-001	9.861839e-002
2.251114975832069e-001	1.098613e-001	9.907881e-002
2.271400690117781e-001	1.089379e-001	9.803439e-002
2.291686404403493e-001	1.065043e-001	9.548511e-002
2.311972118689205e-001	1.025605e-001	9.143097e-002
2.332257832974917e-001	9.710644e-002	8.587199e-002
2.352543547260629e-001	9.014222e-002	7.880815e-002
2.372829261546341e-001	8.166780e-002	7.023946e-002
2.384543547260626e-001	7.626209e-002	6.478646e-002
2.396257832974910e-001	7.057895e-002	5.906055e-002
2.407972118689195e-001	6.461838e-002	5.306174e-002
2.419686404403479e-001	5.838039e-002	4.679002e-002
2.431400690117763e-001	5.186497e-002	4.024540e-002
2.443114975832048e-001	4.507212e-002	3.342789e-002
2.454829261546332e-001	3.800184e-002	2.633746e-002
2.461159618689189e-001	3.414654e-002	2.247360e-002
2.467489975832045e-001	3.026860e-002	1.858860e-002
2.473820332974901e-001	2.636802e-002	1.468247e-002
2.480150690117758e-001	2.244479e-002	1.075520e-002
2.486481047260614e-001	1.849892e-002	6.806805e-003
2.492811404403471e-001	1.453040e-002	2.837276e-003
2.499141761546327e-001	1.053924e-002	-1.153386e-003
2.505427475832041e-001	6.575232e-003	-5.115353e-003
2.511713190117754e-001	2.631846e-003	-9.055219e-003
2.517998904403468e-001	-1.290919e-003	-1.297298e-002
2.524284618689182e-001	-5.193062e-003	-1.686864e-002
2.530570332974895e-001	-9.074584e-003	-2.074220e-002
2.536856047260609e-001	-1.293549e-002	-2.459366e-002
2.543141761546323e-001	-1.677576e-002	-2.842302e-002
2.553713190117750e-001	-2.317660e-002	-3.480196e-002
2.564284618689177e-001	-2.936564e-002	-4.096547e-002
2.574856047260605e-001	-3.534289e-002	-4.691354e-002
2.585427475832032e-001	-4.110834e-002	-5.264618e-002
2.595998904403460e-001	-4.666200e-002	-5.816338e-002
2.606570332974887e-001	-5.200386e-002	-6.346515e-002
2.617141761546314e-001	-5.713394e-002	-6.855148e-002
2.634998904403456e-001	-6.517521e-002	-7.650964e-002
2.652856047260596e-001	-7.209526e-002	-8.334180e-002
2.670713190117737e-001	-7.789409e-002	-8.904794e-002
2.688570332974878e-001	-8.257169e-002	-9.362808e-002
2.706427475832019e-001	-8.612807e-002	-9.708222e-002
2.724284618689160e-001	-8.856322e-002	-9.941034e-002
2.742141761546301e-001	-8.987714e-002	-1.006125e-001
2.761141761546299e-001	-8.962401e-002	-1.002397e-001
2.780141761546296e-001	-8.806334e-002	-9.856461e-002
2.799141761546294e-001	-8.519513e-002	-9.558726e-002
2.818141761546292e-001	-8.101939e-002	-9.130761e-002
2.837141761546290e-001	-7.553612e-002	-8.572568e-002
2.856141761546288e-001	-6.874531e-002	-7.884146e-002
2.875141761546286e-001	-6.064697e-002	-7.065496e-002
2.886141761546285e-001	-5.552167e-002	-6.548482e-002
2.897141761546284e-001	-5.015108e-002	-6.007338e-002
2.908141761546282e-001	-4.453520e-002	-5.442064e-002
2.919141761546281e-001	-3.867404e-002	-4.852661e-002
2.930141761546280e-001	-3.256758e-002	-4.239127e-002
2.941141761546279e-001	-2.621584e-002	-3.601464e-002
2.952141761546278e-001	-1.961880e-002	-2.939671e-002
2.955713190117706e-001	-1.746550e-002	-2.723769e-002
2.959284618689134e-001	-1.530110e-002	-2.506805e-002
2.962856047260562e-001	-1.312561e-002	-2.288779e-002
2.966427475831990e-001	-1.093904e-002	-2.069693e-002
2.969998904403419e-001	-8.741378e-003	-1.849545e-002
2.973570332974846e-001	-6.532628e-003	-1.628336e-002
2.977141761546275e-001	-4.312789e-003	-1.406066e-002
2.978141761546275e-001	-3.690667e-003	-1.343782e-002
2.983228396590917e-001	-5.090936e-004	-1.025320e-002
2.988315031635559e-001	2.674722e-003	-7.067318e-003
2.993401666680202e-001	5.860779e-003	-3.880179e-003
2.998488301724844e-001	9.049078e-003	-6.917835e-004
3.003574936769487e-001	1.223962e-002	2.497871e-003
3.008661571814129e-001	1.543240e-002	5.688782e-003
3.013748206858772e-001	1.862743e-002	8.880952e-003
3.022891064001628e-001	2.437886e-002	1.462467e-002
3.032033921144484e-001	3.003709e-002	2.027218e-002
3.041176778287340e-001	3.560212e-002	2.582348e-002
3.050319635430197e-001	4.107396e-002	3.127857e-002
3.059462492573052e-001	4.645260e-002	3.663746e-002
3.068605349715909e-001	5.173804e-002	4.190014e-002
3.077748206858765e-001	5.693029e-002	4.706661e-002
3.092462492573049e-001	6.502282e-002	5.511080e-002
3.107176778287333e-001	7.250121e-002	6.253541e-002
3.121891064001617e-001	7.936545e-002	6.934045e-002
3.136605349715901e-001	8.561555e-002	7.552592e-002
3.151319635430185e-001	9.125150e-002	8.109181e-002
3.166033921144469e-001	9.627331e-002	8.603813e-002
3.180748206858753e-001	1.006810e-001	9.036487e-002
3.206462492573036e-001	1.062217e-001	9.574946e-002
3.232176778287319e-001	1.092521e-001	9.862766e-002
3.257891064001602e-001	1.097723e-001	9.899949e-002
3.283605349715885e-001	1.077821e-001	9.686495e-002
3.309319635430168e-001	1.032817e-001	9.222403e-002
3.335033921144451e-001	9.627102e-002	8.507673e-002
3.360748206858734e-001	8.675005e-002	7.542305e-002
3.373176778287303e-001	8.142011e-002	7.003879e-002
3.385605349715874e-001	7.574748e-002	6.431674e-002
3.398033921144444e-001	6.973214e-002	5.825690e-002
3.410462492573014e-001	6.337411e-002	5.185927e-002
3.422891064001584e-001	5.667338e-002	4.512386e-002
3.435319635430154e-001	4.962996e-002	3.805066e-002
3.447748206858724e-001	4.224384e-002	3.063967e-002
3.454766064001580e-001	3.801895e-002	2.640351e-002
3.461783921144437e-001	3.376049e-002	2.213562e-002
3.468801778287293e-001	2.946844e-002	1.783600e-002
3.475819635430150e-001	2.514282e-002	1.350465e-002
3.482837492573006e-001	2.078363e-002	9.141579e-003
3.489855349715862e-001	1.639085e-002	4.746776e-003
3.496873206858719e-001	1.196449e-002	3.202438e-004
3.503502671144432e-001	7.781492e-003	-3.861150e-003
3.510132135430146e-001	3.620270e-003	-8.019115e-003
3.516761599715860e-001	-5.191691e-004	-1.215365e-002
3.523391064001573e-001	-4.636827e-003	-1.626476e-002
3.530020528287287e-001	-8.732703e-003	-2.035244e-002
3.536649992573001e-001	-1.280680e-002	-2.441669e-002
3.543279456858714e-001	-1.685911e-002	-2.845751e-002
3.553850885430142e-001	-2.325819e-002	-3.483467e-002
3.564422314001569e-001	-2.944515e-002	-4.099608e-002
3.574993742572996e-001	-3.541998e-002	-4.694171e-002
3.585565171144424e-001	-4.118268e-002	-5.267158e-002
3.596136599715851e-001	-4.673326e-002	-5.818569e-002
3.606708028287278e-001	-5.207171e-002	-6.348403e-002
3.617279456858706e-001	-5.719803e-002	-6.856661e-002
3.635136599715847e-001	-6.523213e-002	-7.651758e-002
3.652993742572988e-001	-7.214454e-002	-8.334209e-002
3.670850885430129e-001	-7.793528e-002	-8.904015e-002
3.688708028287269e-001	-8.260433e-002	-9.361176e-002
3.706565171144410e-001	-8.615169e-002	-9.705690e-002
3.724422314001551e-001	-8.857737e-002	-9.937560e-002
3.742279456858692e-001	-8.988138e-002	-1.005678e-001
3.761279456858690e-001	-8.961757e-002	-1.001844e-001
3.780279456858688e-001	-8.804667e-002	-9.849921e-002
3.799279456858686e-001	-8.516868e-002	-9.551215e-002
3.818279456858684e-001	-8.098358e-002	-9.122324e-002
3.837279456858682e-001	-7.549139e-002	-8.563250e-002
3.856279456858680e-001	-6.869210e-002	-7.873991e-002
3.875279456858677e-001	-6.058571e-002	-7.054549e-002
3.886279456858676e-001	-5.545630e-002	-6.537131e-002
3.897279456858675e-001	-5.008195e-002	-5.995619e-002
3.908279456858674e-001	-4.446267e-002	-5.430012e-002
3.919279456858673e-001	-3.859845e-002	-4.840311e-002
3.930279456858671e-001	-3.248929e-002	-4.226516e-002
3.941279456858670e-001	-2.613519e-002	-3.588627e-002
3.952279456858669e-001	-1.953616e-002	-2.926642e-002
3.955850885430097e-001	-1.738230e-002	-2.710687e-002
3.959422314001525e-001	-1.521739e-002	-2.493675e-002
3.962993742572953e-001	-1.304144e-002	-2.275605e-002
3.966565171144382e-001	-1.085443e-002	-2.056479e-002
3.970136599715810e-001	-8.656389e-003	-1.836296e-002
3.973708028287238e-001	-6.447296e-003	-1.615055e-002
3.977279456858666e-001	-4.227158e-003	-1.392758e-002
3.978279456858666e-001	-3.604960e-003	-1.330468e-002
3.983478187327416e-001	-3.525619e-004	-1.004922e-002
3.988676917796165e-001	2.901876e-003	-6.792743e-003
3.993875648264915e-001	6.158353e-003	-3.535259e-003
3.999074378733664e-001	9.416869e-003	-2.767637e-004
4.004273109202414e-001	1.267742e-002	2.982743e-003
4.009471839671163e-001	1.594002e-002	6.243261e-003
4.014670570139913e-001	1.920465e-002	9.504790e-003
4.023956284425626e-001	2.504297e-002	1.533489e-002
4.033241998711339e-001	3.078227e-002	2.106288e-002
4.042527712997053e-001	3.642254e-002	2.668875e-002
4.051813427282766e-001	4.196379e-002	3.221250e-002
4.061099141568479e-001	4.740602e-002	3.763413e-002
4.070384855854192e-001	5.274923e-002	4.295365e-002
4.079670570139906e-001	5.799341e-002	4.817105e-002
4.094527712997047e-001	6.610490e-002	5.623269e-002
4.109384855854188e-001	7.358143e-002	6.365394e-002
4.124241998711329e-001	8.042300e-002	7.043477e-002
4.139099141568470e-001	8.662960e-002	7.657521e-002
4.153956284425612e-001	9.220124e-002	8.207524e-002
4.168813427282753e-001	9.713791e-002	8.693486e-002
4.183670570139894e-001	1.014396e-001	9.115408e-002
4.208956284425606e-001	1.066260e-001	9.618642e-002
4.234241998711317e-001	1.093856e-001	9.879593e-002
4.259527712997029e-001	1.097184e-001	9.898260e-002
4.284813427282740e-001	1.076244e-001	9.674643e-002
4.310099141568451e-001	1.031035e-001	9.208743e-002
4.335384855854163e-001	9.615583e-002	8.500559e-002
4.360670570139875e-001	8.678132e-002	7.550092e-002
4.373099141568445e-001	8.145423e-002	7.011946e-002
4.385527712997015e-001	7.578421e-002	6.439996e-002
4.397956284425585e-001	6.977125e-002	5.834243e-002
4.410384855854155e-001	6.341535e-002	5.194687e-002
4.422813427282725e-001	5.671651e-002	4.521328e-002
4.435241998711295e-001	4.967473e-002	3.814165e-002
4.447670570139865e-001	4.229001e-002	3.073199e-002
4.454670570139864e-001	3.807671e-002	2.650739e-002
4.461670570139864e-001	3.382983e-002	2.225107e-002
4.468670570139863e-001	2.954937e-002	1.796300e-002
4.475670570139862e-001	2.523533e-002	1.364320e-002
4.482670570139861e-001	2.088772e-002	9.291664e-003
4.489670570139860e-001	1.650653e-002	4.908391e-003
4.496670570139860e-001	1.209177e-002	4.933820e-004
4.503366998711287e-001	7.866167e-003	-3.730660e-003
4.510063427282716e-001	3.662818e-003	-7.930768e-003
4.516759855854143e-001	-5.182774e-004	-1.210694e-002
4.523456284425571e-001	-4.677120e-003	-1.625918e-002
4.530152712996999e-001	-8.813711e-003	-2.038748e-002
4.536849141568427e-001	-1.292805e-002	-2.449185e-002
4.543545570139855e-001	-1.702013e-002	-2.857229e-002
4.554116998711282e-001	-2.341581e-002	-3.494598e-002
